
T20A4 000:059 SEGGER J-Link V6.10d Log File (0000ms, 0030ms total)
T20A4 000:059 DLL Compiled: Oct  6 2016 22:10:47 (0000ms, 0030ms total)
T20A4 000:059 Logging started @ 2017-03-08 16:31 (0000ms, 0030ms total)
T20A4 000:059 JLINK_SetWarnOutHandler(...) (0001ms, 0031ms total)
T20A4 000:060 JLINK_OpenEx(...)
Firmware: J-Link ARM-OB STM32 compiled Aug 22 2012 19:52:04
Hardware: V7.00
S/N: 20090928
Feature(s): RDI,FlashDL,FlashBP,JFlash,GDBFullWEBSRV Webserver running on local port 19080 (0020ms, 0051ms total)
T20A4 000:060   returns O.K. (0020ms, 0051ms total)
T20A4 000:080 JLINK_SetErrorOutHandler(...) (0000ms, 0051ms total)
T20A4 000:080 JLINK_ExecCommand("ProjectFile = "C:\Users\ZhiyangZhang\Desktop\abu2017\abu2017\Ö÷¿Ø1.1\MDK-ARM\JLinkSettings.ini"", ...). C:\Program Files (x86)\SEGGER\JLink_V610d\JLinkDevices.xml evaluated successfully.  returns 0x00 (0261ms, 0312ms total)
T20A4 000:344 JLINK_ExecCommand("Device = STM32F407VETx", ...). Device "STM32F407VE" selected.  returns 0x00 (0004ms, 0316ms total)
T20A4 000:348 JLINK_ExecCommand("DisableConnectionTimeout", ...).   returns 0x01 (0000ms, 0316ms total)
T20A4 000:348 JLINK_GetHardwareVersion()  returns 0x11170 (0000ms, 0316ms total)
T20A4 000:348 JLINK_GetDLLVersion()  returns 61004 (0000ms, 0316ms total)
T20A4 000:348 JLINK_GetFirmwareString(...) (0000ms, 0316ms total)
T20A4 000:356 JLINK_GetDLLVersion()  returns 61004 (0000ms, 0316ms total)
T20A4 000:356 JLINK_GetCompileDateTime() (0000ms, 0316ms total)
T20A4 000:358 JLINK_GetFirmwareString(...) (0000ms, 0316ms total)
T20A4 000:360 JLINK_GetHardwareVersion()  returns 0x11170 (0000ms, 0316ms total)
T20A4 000:368 JLINK_TIF_Select(JLINKARM_TIF_SWD)  returns 0x00 (0003ms, 0319ms total)
T20A4 000:371 JLINK_SetSpeed(500) (0001ms, 0320ms total)
T20A4 000:372 JLINK_GetId() >0x108 TIF>Found SWD-DP with ID 0x2BA01477 >0x0D TIF> >0x28 TIF> >0x0D TIF> >0x28 TIF> >0x0D TIF> >0x28 TIF> >0x0D TIF> >0x28 TIF> >0x0D TIF> >0x21 TIF> >0x0D TIF> >0x28 TIF> >0x0D TIF> >0x28 TIF> >0x0D TIF> >0x28 TIF> >0x0D TIF> >0x21 TIF> >0x0D TIF> >0x21 TIF> >0x0D TIF> >0x28 TIF> >0x0D TIF> >0x21 TIF> >0x0D TIF> >0x21 TIF> >0x0D TIF> >0x28 TIF> >0x0D TIF> >0x28 TIF> >0x0D TIF> >0x28 TIF> >0x0D TIF> >0x21 TIF> >0x0D TIF> >0x21 TIF> >0x0D TIF> >0x28 TIF> >0x0D TIF>
 >0x28 TIF> >0x0D TIF> >0x28 TIF> >0x0D TIF> >0x21 TIF> >0x0D TIF> >0x21 TIF> >0x0D TIF> >0x28 TIF> >0x0D TIF> >0x21 TIF> >0x0D TIF> >0x21 TIF> >0x0D TIF> >0x28 TIF> >0x0D TIF> >0x21 TIF> >0x0D TIF> >0x21 TIF> >0x108 TIF>Found SWD-DP with ID 0x2BA01477 >0x0D TIF> >0x28 TIF> >0x0D TIF> >0x28 TIF> >0x0D TIF> >0x28 TIF> >0x0D TIF> >0x28 TIF> >0x0D TIF> >0x21 TIF> >0x0D TIF> >0x28 TIF> >0x0D TIF> >0x28 TIF> >0x0D TIF> >0x21 TIF> >0x0D TIF> >0x21 TIF> >0x0D TIF> >0x21 TIF>AP-IDR: 0x24770011, Type: AHB-AP
 >0x0D TIF> >0x28 TIF> >0x0D TIF> >0x28 TIF> >0x0D TIF> >0x28 TIF> >0x0D TIF> >0x21 TIF> >0x0D TIF> >0x21 TIF> >0x0D TIF> >0x28 TIF> >0x0D TIF> >0x21 TIF> >0x0D TIF> >0x21 TIF>Found Cortex-M4 r0p1, Little endian. -- CPU_ReadMem(4 bytes @ 0xE000EDF0) -- CPU_WriteMem(4 bytes @ 0xE000EDF0) -- CPU_ReadMem(4 bytes @ 0xE0002000)FPUnit: 6 code (BP) slots and 2 literal slots -- CPU_ReadMem(4 bytes @ 0xE000EDFC) -- CPU_WriteMem(4 bytes @ 0xE000EDFC) -- CPU_ReadMem(4 bytes @ 0xE0001000)
 -- CPU_WriteMem(4 bytes @ 0xE0001000) -- CPU_ReadMem(4 bytes @ 0xE000ED88) -- CPU_WriteMem(4 bytes @ 0xE000ED88) -- CPU_ReadMem(4 bytes @ 0xE000ED88) -- CPU_WriteMem(4 bytes @ 0xE000ED88)CoreSight components:ROMTbl 0 @ E00FF000 -- CPU_ReadMem(16 bytes @ 0xE00FF000) -- CPU_ReadMem(16 bytes @ 0xE000EFF0) -- CPU_ReadMem(16 bytes @ 0xE000EFE0)ROMTbl 0 [0]: FFF0F000, CID: B105E00D, PID: 000BB00C SCS -- CPU_ReadMem(16 bytes @ 0xE0001FF0) -- CPU_ReadMem(16 bytes @ 0xE0001FE0)
ROMTbl 0 [1]: FFF02000, CID: B105E00D, PID: 003BB002 DWT -- CPU_ReadMem(16 bytes @ 0xE0002FF0) -- CPU_ReadMem(16 bytes @ 0xE0002FE0)ROMTbl 0 [2]: FFF03000, CID: B105E00D, PID: 002BB003 FPB -- CPU_ReadMem(16 bytes @ 0xE0000FF0) -- CPU_ReadMem(16 bytes @ 0xE0000FE0)ROMTbl 0 [3]: FFF01000, CID: B105E00D, PID: 003BB001 ITM -- CPU_ReadMem(16 bytes @ 0xE00FF010) -- CPU_ReadMem(16 bytes @ 0xE0040FF0) -- CPU_ReadMem(16 bytes @ 0xE0040FE0)ROMTbl 0 [4]: FFF41000, CID: B105900D, PID: 000BB9A1 TPIU
 -- CPU_ReadMem(16 bytes @ 0xE0041FF0) -- CPU_ReadMem(16 bytes @ 0xE0041FE0)ROMTbl 0 [5]: FFF42000, CID: B105900D, PID: 000BB925 ETM >0x0D TIF> >0x21 TIF>  returns 0x2BA01477 (0221ms, 0541ms total)
T20A4 000:593 JLINK_GetDeviceFamily()  returns 14 (0001ms, 0542ms total)
T20A4 000:599 JLINK_ReadMem (0xE00FFFF0, 0x0010 Bytes, ...) -- CPU is running -- CPU_ReadMem(16 bytes @ 0xE00FFFF0) - Data: 0D 00 00 00 10 00 00 00 05 00 00 00 B1 00 00 00  returns 0x00 (0002ms, 0544ms total)
T20A4 000:601 JLINK_ReadMem (0xE00FFFD0, 0x0020 Bytes, ...) -- CPU is running -- CPU_ReadMem(32 bytes @ 0xE00FFFD0) - Data: 00 00 00 00 00 00 00 00 00 00 00 00 00 00 00 00 ...  returns 0x00 (0002ms, 0546ms total)
T20A4 000:603 JLINK_ReadMem (0xE00FF000, 0x0018 Bytes, ...) -- CPU is running -- CPU_ReadMem(24 bytes @ 0xE00FF000) - Data: 03 F0 F0 FF 03 20 F0 FF 03 30 F0 FF 03 10 F0 FF ...  returns 0x00 (0002ms, 0548ms total)
T20A4 000:605 JLINK_ReadMemU32(0xE000ED00, 0x0001 Items, ...) -- CPU is running -- CPU_ReadMem(4 bytes @ 0xE000ED00) - Data: 41 C2 0F 41  returns 0x01 (0002ms, 0550ms total)
T20A4 000:607 JLINK_ReadMemU32(0xE000EF40, 0x0001 Items, ...) -- CPU is running -- CPU_ReadMem(4 bytes @ 0xE000EF40) - Data: 21 00 11 10  returns 0x01 (0002ms, 0552ms total)
T20A4 000:609 JLINK_ReadMemU32(0xE000EF44, 0x0001 Items, ...) -- CPU is running -- CPU_ReadMem(4 bytes @ 0xE000EF44) - Data: 11 00 00 11  returns 0x01 (0002ms, 0554ms total)
T20A4 000:611 JLINK_SetResetType(JLINKARM_RESET_TYPE_NORMAL)  returns JLINKARM_RESET_TYPE_NORMAL (0000ms, 0554ms total)
T20A4 000:611 JLINK_Reset() -- CPU is running -- CPU_WriteMem(4 bytes @ 0xE000EDF0) -- CPU is running -- CPU_WriteMem(4 bytes @ 0xE000EDFC) >0x35 TIF> -- CPU is running -- CPU_WriteMem(4 bytes @ 0xE000ED0C) -- CPU is running -- CPU_ReadMem(4 bytes @ 0xE000EDF0) -- CPU is running -- CPU_ReadMem(4 bytes @ 0xE000EDF0) -- CPU is running -- CPU_WriteMem(4 bytes @ 0xE000EDF0) -- CPU is running -- CPU_WriteMem(4 bytes @ 0xE000EDFC) -- CPU is running -- CPU_ReadMem(4 bytes @ 0xE000EDF0)
 -- CPU_WriteMem(4 bytes @ 0xE0002000) -- CPU_ReadMem(4 bytes @ 0xE000EDFC) -- CPU_ReadMem(4 bytes @ 0xE0001000) (0041ms, 0595ms total)
T20A4 000:652 JLINK_Halt()  returns 0x00 (0000ms, 0595ms total)
T20A4 000:652 JLINK_IsHalted()  returns TRUE (0000ms, 0595ms total)
T20A4 000:652 JLINK_ReadMemU32(0xE000EDF0, 0x0001 Items, ...) -- CPU_ReadMem(4 bytes @ 0xE000EDF0) - Data: 03 00 03 00  returns 0x01 (0002ms, 0597ms total)
T20A4 000:654 JLINK_WriteU32(0xE000EDF0, 0xA05F0003) -- CPU_WriteMem(4 bytes @ 0xE000EDF0)  returns 0x00 (0002ms, 0599ms total)
T20A4 000:656 JLINK_WriteU32(0xE000EDFC, 0x01000000) -- CPU_WriteMem(4 bytes @ 0xE000EDFC)  returns 0x00 (0002ms, 0601ms total)
T20A4 000:663 JLINK_GetHWStatus(...)  returns 0x00 (0001ms, 0602ms total)
T20A4 000:669 JLINK_GetNumBPUnits(Type = 0xFFFFFF00)  returns 0x06 (0000ms, 0602ms total)
T20A4 000:669 JLINK_GetNumBPUnits(Type = 0xF0)  returns 0x2000 (0000ms, 0602ms total)
T20A4 000:669 JLINK_GetNumWPUnits()  returns 0x04 (0000ms, 0602ms total)
T20A4 000:673 JLINK_GetSpeed()  returns 0x1F4 (0000ms, 0602ms total)
T20A4 000:675 JLINK_ReadMemU32(0xE000E004, 0x0001 Items, ...) -- CPU_ReadMem(4 bytes @ 0xE000E004) - Data: 02 00 00 00  returns 0x01 (0002ms, 0604ms total)
T20A4 000:677 JLINK_ReadMemU32(0xE000E004, 0x0001 Items, ...) -- CPU_ReadMem(4 bytes @ 0xE000E004) - Data: 02 00 00 00  returns 0x01 (0002ms, 0606ms total)
T20A4 000:679 JLINK_WriteMem(0xE0001000, 0x001C Bytes, ...) - Data: 01 00 00 00 00 00 00 00 00 00 00 00 00 00 00 00 ... -- CPU_WriteMem(28 bytes @ 0xE0001000)  returns 0x1C (0002ms, 0608ms total)
T20A4 000:681 JLINK_ReadMem (0xE0001000, 0x001C Bytes, ...) -- CPU_ReadMem(28 bytes @ 0xE0001000) - Data: 01 00 00 40 00 00 00 00 00 00 00 00 00 00 00 00 ...  returns 0x00 (0002ms, 0610ms total)
T20A4 000:683 JLINK_Halt()  returns 0x00 (0000ms, 0610ms total)
T20A4 000:683 JLINK_IsHalted()  returns TRUE (0000ms, 0610ms total)
T20A4 000:685 JLINK_WriteMem(0x20000000, 0x0188 Bytes, ...) - Data: 00 BE 0A E0 0D 78 2D 06 68 40 08 24 40 00 00 D3 ... -- CPU_WriteMem(392 bytes @ 0x20000000)  returns 0x188 (0019ms, 0629ms total)
T20A4 000:704 JLINK_WriteReg(R0, 0x08000000)  returns 0x00 (0000ms, 0629ms total)
T20A4 000:704 JLINK_WriteReg(R1, 0x00B71B00)  returns 0x00 (0000ms, 0629ms total)
T20A4 000:704 JLINK_WriteReg(R2, 0x00000001)  returns 0x00 (0000ms, 0629ms total)
T20A4 000:704 JLINK_WriteReg(R3, 0x00000000)  returns 0x00 (0000ms, 0629ms total)
T20A4 000:704 JLINK_WriteReg(R4, 0x00000000)  returns 0x00 (0000ms, 0629ms total)
T20A4 000:704 JLINK_WriteReg(R5, 0x00000000)  returns 0x00 (0000ms, 0629ms total)
T20A4 000:704 JLINK_WriteReg(R6, 0x00000000)  returns 0x00 (0000ms, 0629ms total)
T20A4 000:704 JLINK_WriteReg(R7, 0x00000000)  returns 0x00 (0000ms, 0629ms total)
T20A4 000:704 JLINK_WriteReg(R8, 0x00000000)  returns 0x00 (0000ms, 0629ms total)
T20A4 000:704 JLINK_WriteReg(R9, 0x20000184)  returns 0x00 (0000ms, 0629ms total)
T20A4 000:704 JLINK_WriteReg(R10, 0x00000000)  returns 0x00 (0000ms, 0629ms total)
T20A4 000:704 JLINK_WriteReg(R11, 0x00000000)  returns 0x00 (0000ms, 0629ms total)
T20A4 000:704 JLINK_WriteReg(R12, 0x00000000)  returns 0x00 (0000ms, 0629ms total)
T20A4 000:704 JLINK_WriteReg(R13 (SP), 0x20001000)  returns 0x00 (0000ms, 0629ms total)
T20A4 000:704 JLINK_WriteReg(R14, 0x20000001)  returns 0x00 (0000ms, 0629ms total)
T20A4 000:704 JLINK_WriteReg(R15 (PC), 0x2000005E)  returns 0x00 (0001ms, 0630ms total)
T20A4 000:705 JLINK_WriteReg(XPSR, 0x01000000)  returns 0x00 (0000ms, 0630ms total)
T20A4 000:705 JLINK_WriteReg(MSP, 0x20001000)  returns 0x00 (0000ms, 0630ms total)
T20A4 000:705 JLINK_WriteReg(PSP, 0x20001000)  returns 0x00 (0000ms, 0630ms total)
T20A4 000:705 JLINK_WriteReg(CFBP, 0x00000000)  returns 0x00 (0000ms, 0630ms total)
T20A4 000:705 JLINK_SetBPEx(Addr = 0x20000000, Type = 0xFFFFFFF2) -- CPU_ReadMem(2 bytes @ 0x20000000)  returns 0x00000001 (0001ms, 0631ms total)
T20A4 000:706 JLINK_Go() -- CPU_WriteMem(2 bytes @ 0x20000000) -- CPU_ReadMem(4 bytes @ 0xE0001000) -- CPU_WriteMem(4 bytes @ 0xE0002008) -- CPU_WriteMem(4 bytes @ 0xE000200C) -- CPU_WriteMem(4 bytes @ 0xE0002010) -- CPU_WriteMem(4 bytes @ 0xE0002014) -- CPU_WriteMem(4 bytes @ 0xE0002018) -- CPU_WriteMem(4 bytes @ 0xE000201C) -- CPU_WriteMem(4 bytes @ 0xE0001004) (0020ms, 0651ms total)
T20A4 000:726 JLINK_IsHalted() -- CPU_ReadMem(2 bytes @ 0x20000000)  returns TRUE (0014ms, 0665ms total)
T20A4 000:741 JLINK_ReadReg(R15 (PC))  returns 0x20000000 (0000ms, 0651ms total)
T20A4 000:741 JLINK_ClrBPEx(BPHandle = 0x00000001)  returns 0x00 (0000ms, 0651ms total)
T20A4 000:741 JLINK_ReadReg(R0)  returns 0x00000000 (0000ms, 0651ms total)
T20A4 000:741 JLINK_WriteReg(R0, 0x08000000)  returns 0x00 (0000ms, 0651ms total)
T20A4 000:741 JLINK_WriteReg(R1, 0x00004000)  returns 0x00 (0001ms, 0652ms total)
T20A4 000:742 JLINK_WriteReg(R2, 0x000000FF)  returns 0x00 (0000ms, 0652ms total)
T20A4 000:742 JLINK_WriteReg(R3, 0x00000000)  returns 0x00 (0000ms, 0652ms total)
T20A4 000:742 JLINK_WriteReg(R4, 0x00000000)  returns 0x00 (0000ms, 0652ms total)
T20A4 000:742 JLINK_WriteReg(R5, 0x00000000)  returns 0x00 (0000ms, 0652ms total)
T20A4 000:742 JLINK_WriteReg(R6, 0x00000000)  returns 0x00 (0000ms, 0652ms total)
T20A4 000:742 JLINK_WriteReg(R7, 0x00000000)  returns 0x00 (0000ms, 0652ms total)
T20A4 000:742 JLINK_WriteReg(R8, 0x00000000)  returns 0x00 (0000ms, 0652ms total)
T20A4 000:742 JLINK_WriteReg(R9, 0x20000184)  returns 0x00 (0000ms, 0652ms total)
T20A4 000:742 JLINK_WriteReg(R10, 0x00000000)  returns 0x00 (0000ms, 0652ms total)
T20A4 000:742 JLINK_WriteReg(R11, 0x00000000)  returns 0x00 (0000ms, 0652ms total)
T20A4 000:742 JLINK_WriteReg(R12, 0x00000000)  returns 0x00 (0000ms, 0652ms total)
T20A4 000:742 JLINK_WriteReg(R13 (SP), 0x20001000)  returns 0x00 (0000ms, 0652ms total)
T20A4 000:742 JLINK_WriteReg(R14, 0x20000001)  returns 0x00 (0000ms, 0652ms total)
T20A4 000:742 JLINK_WriteReg(R15 (PC), 0x20000020)  returns 0x00 (0000ms, 0652ms total)
T20A4 000:742 JLINK_WriteReg(XPSR, 0x01000000)  returns 0x00 (0000ms, 0652ms total)
T20A4 000:742 JLINK_WriteReg(MSP, 0x20001000)  returns 0x00 (0000ms, 0652ms total)
T20A4 000:742 JLINK_WriteReg(PSP, 0x20001000)  returns 0x00 (0000ms, 0652ms total)
T20A4 000:742 JLINK_WriteReg(CFBP, 0x00000000)  returns 0x00 (0000ms, 0652ms total)
T20A4 000:742 JLINK_SetBPEx(Addr = 0x20000000, Type = 0xFFFFFFF2)  returns 0x00000002 (0000ms, 0652ms total)
T20A4 000:742 JLINK_Go() -- CPU_ReadMem(4 bytes @ 0xE0001000) (0007ms, 0659ms total)
T20A4 000:749 JLINK_IsHalted() -- CPU_ReadMem(2 bytes @ 0x20000000)  returns TRUE (0014ms, 0673ms total)
T20A4 000:763 JLINK_ReadReg(R15 (PC))  returns 0x20000000 (0000ms, 0659ms total)
T20A4 000:763 JLINK_ClrBPEx(BPHandle = 0x00000002)  returns 0x00 (0000ms, 0659ms total)
T20A4 000:763 JLINK_ReadReg(R0)  returns 0x00000001 (0000ms, 0659ms total)
T20A4 000:763 JLINK_WriteReg(R0, 0x08000000)  returns 0x00 (0000ms, 0659ms total)
T20A4 000:763 JLINK_WriteReg(R1, 0x00004000)  returns 0x00 (0000ms, 0659ms total)
T20A4 000:763 JLINK_WriteReg(R2, 0x000000FF)  returns 0x00 (0000ms, 0659ms total)
T20A4 000:763 JLINK_WriteReg(R3, 0x00000000)  returns 0x00 (0000ms, 0659ms total)
T20A4 000:764 JLINK_WriteReg(R4, 0x00000000)  returns 0x00 (0000ms, 0659ms total)
T20A4 000:764 JLINK_WriteReg(R5, 0x00000000)  returns 0x00 (0000ms, 0659ms total)
T20A4 000:764 JLINK_WriteReg(R6, 0x00000000)  returns 0x00 (0000ms, 0659ms total)
T20A4 000:764 JLINK_WriteReg(R7, 0x00000000)  returns 0x00 (0000ms, 0659ms total)
T20A4 000:764 JLINK_WriteReg(R8, 0x00000000)  returns 0x00 (0000ms, 0659ms total)
T20A4 000:764 JLINK_WriteReg(R9, 0x20000184)  returns 0x00 (0000ms, 0659ms total)
T20A4 000:764 JLINK_WriteReg(R10, 0x00000000)  returns 0x00 (0000ms, 0659ms total)
T20A4 000:764 JLINK_WriteReg(R11, 0x00000000)  returns 0x00 (0000ms, 0659ms total)
T20A4 000:764 JLINK_WriteReg(R12, 0x00000000)  returns 0x00 (0000ms, 0659ms total)
T20A4 000:764 JLINK_WriteReg(R13 (SP), 0x20001000)  returns 0x00 (0000ms, 0659ms total)
T20A4 000:764 JLINK_WriteReg(R14, 0x20000001)  returns 0x00 (0000ms, 0659ms total)
T20A4 000:764 JLINK_WriteReg(R15 (PC), 0x200000C6)  returns 0x00 (0000ms, 0659ms total)
T20A4 000:764 JLINK_WriteReg(XPSR, 0x01000000)  returns 0x00 (0000ms, 0659ms total)
T20A4 000:764 JLINK_WriteReg(MSP, 0x20001000)  returns 0x00 (0000ms, 0659ms total)
T20A4 000:764 JLINK_WriteReg(PSP, 0x20001000)  returns 0x00 (0000ms, 0659ms total)
T20A4 000:764 JLINK_WriteReg(CFBP, 0x00000000)  returns 0x00 (0000ms, 0659ms total)
T20A4 000:764 JLINK_SetBPEx(Addr = 0x20000000, Type = 0xFFFFFFF2)  returns 0x00000003 (0000ms, 0659ms total)
T20A4 000:764 JLINK_Go() -- CPU_ReadMem(4 bytes @ 0xE0001000) (0007ms, 0666ms total)
T20A4 000:771 JLINK_IsHalted()  returns FALSE (0002ms, 0668ms total)
T20A4 000:952 JLINK_IsHalted()  returns FALSE (0001ms, 0667ms total)
T20A4 000:970 JLINK_IsHalted()  returns FALSE (0001ms, 0667ms total)
T20A4 000:972 JLINK_IsHalted()  returns FALSE (0001ms, 0667ms total)
T20A4 000:983 JLINK_IsHalted()  returns FALSE (0001ms, 0667ms total)
T20A4 000:985 JLINK_IsHalted()  returns FALSE (0001ms, 0667ms total)
T20A4 000:987 JLINK_IsHalted()  returns FALSE (0001ms, 0667ms total)
T20A4 000:989 JLINK_IsHalted()  returns FALSE (0001ms, 0667ms total)
T20A4 000:991 JLINK_IsHalted()  returns FALSE (0001ms, 0667ms total)
T20A4 001:000 JLINK_IsHalted()  returns FALSE (0001ms, 0667ms total)
T20A4 001:002 JLINK_IsHalted()  returns FALSE (0001ms, 0667ms total)
T20A4 001:004 JLINK_IsHalted()  returns FALSE (0001ms, 0667ms total)
T20A4 001:032 JLINK_IsHalted()  returns FALSE (0001ms, 0667ms total)
T20A4 001:034 JLINK_IsHalted()  returns FALSE (0001ms, 0667ms total)
T20A4 001:036 JLINK_IsHalted()  returns FALSE (0001ms, 0667ms total)
T20A4 001:045 JLINK_IsHalted()  returns FALSE (0001ms, 0667ms total)
T20A4 001:047 JLINK_IsHalted()  returns FALSE (0001ms, 0667ms total)
T20A4 001:076 JLINK_IsHalted()  returns FALSE (0001ms, 0667ms total)
T20A4 001:078 JLINK_IsHalted()  returns FALSE (0001ms, 0667ms total)
T20A4 001:080 JLINK_IsHalted()  returns FALSE (0001ms, 0667ms total)
T20A4 001:090 JLINK_IsHalted()  returns FALSE (0001ms, 0667ms total)
T20A4 001:092 JLINK_IsHalted()  returns FALSE (0001ms, 0667ms total)
T20A4 001:094 JLINK_IsHalted()  returns FALSE (0001ms, 0667ms total)
T20A4 001:096 JLINK_IsHalted()  returns FALSE (0001ms, 0667ms total)
T20A4 001:098 JLINK_IsHalted()  returns FALSE (0001ms, 0668ms total)
T20A4 001:100 JLINK_IsHalted()  returns FALSE (0001ms, 0668ms total)
T20A4 001:109 JLINK_IsHalted() -- CPU_ReadMem(2 bytes @ 0x20000000)  returns TRUE (0013ms, 0680ms total)
T20A4 001:122 JLINK_ReadReg(R15 (PC))  returns 0x20000000 (0000ms, 0667ms total)
T20A4 001:122 JLINK_ClrBPEx(BPHandle = 0x00000003)  returns 0x00 (0000ms, 0667ms total)
T20A4 001:122 JLINK_ReadReg(R0)  returns 0x00000000 (0000ms, 0667ms total)
T20A4 001:123 JLINK_WriteReg(R0, 0x08004000)  returns 0x00 (0000ms, 0667ms total)
T20A4 001:123 JLINK_WriteReg(R1, 0x00004000)  returns 0x00 (0000ms, 0667ms total)
T20A4 001:123 JLINK_WriteReg(R2, 0x000000FF)  returns 0x00 (0000ms, 0667ms total)
T20A4 001:123 JLINK_WriteReg(R3, 0x00000000)  returns 0x00 (0000ms, 0667ms total)
T20A4 001:123 JLINK_WriteReg(R4, 0x00000000)  returns 0x00 (0000ms, 0667ms total)
T20A4 001:123 JLINK_WriteReg(R5, 0x00000000)  returns 0x00 (0000ms, 0667ms total)
T20A4 001:123 JLINK_WriteReg(R6, 0x00000000)  returns 0x00 (0000ms, 0667ms total)
T20A4 001:123 JLINK_WriteReg(R7, 0x00000000)  returns 0x00 (0000ms, 0667ms total)
T20A4 001:123 JLINK_WriteReg(R8, 0x00000000)  returns 0x00 (0000ms, 0667ms total)
T20A4 001:123 JLINK_WriteReg(R9, 0x20000184)  returns 0x00 (0000ms, 0667ms total)
T20A4 001:123 JLINK_WriteReg(R10, 0x00000000)  returns 0x00 (0000ms, 0667ms total)
T20A4 001:123 JLINK_WriteReg(R11, 0x00000000)  returns 0x00 (0000ms, 0667ms total)
T20A4 001:123 JLINK_WriteReg(R12, 0x00000000)  returns 0x00 (0000ms, 0667ms total)
T20A4 001:123 JLINK_WriteReg(R13 (SP), 0x20001000)  returns 0x00 (0000ms, 0667ms total)
T20A4 001:123 JLINK_WriteReg(R14, 0x20000001)  returns 0x00 (0000ms, 0667ms total)
T20A4 001:123 JLINK_WriteReg(R15 (PC), 0x20000020)  returns 0x00 (0000ms, 0667ms total)
T20A4 001:123 JLINK_WriteReg(XPSR, 0x01000000)  returns 0x00 (0000ms, 0667ms total)
T20A4 001:123 JLINK_WriteReg(MSP, 0x20001000)  returns 0x00 (0000ms, 0667ms total)
T20A4 001:123 JLINK_WriteReg(PSP, 0x20001000)  returns 0x00 (0000ms, 0667ms total)
T20A4 001:123 JLINK_WriteReg(CFBP, 0x00000000)  returns 0x00 (0000ms, 0667ms total)
T20A4 001:123 JLINK_SetBPEx(Addr = 0x20000000, Type = 0xFFFFFFF2)  returns 0x00000004 (0001ms, 0668ms total)
T20A4 001:124 JLINK_Go() -- CPU_ReadMem(4 bytes @ 0xE0001000) (0007ms, 0675ms total)
T20A4 001:131 JLINK_IsHalted() -- CPU_ReadMem(2 bytes @ 0x20000000)  returns TRUE (0014ms, 0689ms total)
T20A4 001:145 JLINK_ReadReg(R15 (PC))  returns 0x20000000 (0000ms, 0675ms total)
T20A4 001:145 JLINK_ClrBPEx(BPHandle = 0x00000004)  returns 0x00 (0000ms, 0675ms total)
T20A4 001:145 JLINK_ReadReg(R0)  returns 0x00000001 (0000ms, 0675ms total)
T20A4 001:145 JLINK_WriteReg(R0, 0x08004000)  returns 0x00 (0000ms, 0675ms total)
T20A4 001:145 JLINK_WriteReg(R1, 0x00004000)  returns 0x00 (0000ms, 0675ms total)
T20A4 001:145 JLINK_WriteReg(R2, 0x000000FF)  returns 0x00 (0000ms, 0675ms total)
T20A4 001:145 JLINK_WriteReg(R3, 0x00000000)  returns 0x00 (0000ms, 0675ms total)
T20A4 001:145 JLINK_WriteReg(R4, 0x00000000)  returns 0x00 (0000ms, 0675ms total)
T20A4 001:145 JLINK_WriteReg(R5, 0x00000000)  returns 0x00 (0000ms, 0675ms total)
T20A4 001:145 JLINK_WriteReg(R6, 0x00000000)  returns 0x00 (0000ms, 0675ms total)
T20A4 001:145 JLINK_WriteReg(R7, 0x00000000)  returns 0x00 (0000ms, 0675ms total)
T20A4 001:145 JLINK_WriteReg(R8, 0x00000000)  returns 0x00 (0000ms, 0675ms total)
T20A4 001:145 JLINK_WriteReg(R9, 0x20000184)  returns 0x00 (0000ms, 0675ms total)
T20A4 001:145 JLINK_WriteReg(R10, 0x00000000)  returns 0x00 (0000ms, 0675ms total)
T20A4 001:145 JLINK_WriteReg(R11, 0x00000000)  returns 0x00 (0000ms, 0675ms total)
T20A4 001:145 JLINK_WriteReg(R12, 0x00000000)  returns 0x00 (0000ms, 0675ms total)
T20A4 001:145 JLINK_WriteReg(R13 (SP), 0x20001000)  returns 0x00 (0000ms, 0675ms total)
T20A4 001:145 JLINK_WriteReg(R14, 0x20000001)  returns 0x00 (0000ms, 0675ms total)
T20A4 001:145 JLINK_WriteReg(R15 (PC), 0x200000C6)  returns 0x00 (0000ms, 0675ms total)
T20A4 001:145 JLINK_WriteReg(XPSR, 0x01000000)  returns 0x00 (0000ms, 0675ms total)
T20A4 001:145 JLINK_WriteReg(MSP, 0x20001000)  returns 0x00 (0000ms, 0675ms total)
T20A4 001:145 JLINK_WriteReg(PSP, 0x20001000)  returns 0x00 (0000ms, 0675ms total)
T20A4 001:145 JLINK_WriteReg(CFBP, 0x00000000)  returns 0x00 (0000ms, 0675ms total)
T20A4 001:145 JLINK_SetBPEx(Addr = 0x20000000, Type = 0xFFFFFFF2)  returns 0x00000005 (0000ms, 0675ms total)
T20A4 001:145 JLINK_Go() -- CPU_ReadMem(4 bytes @ 0xE0001000) (0007ms, 0682ms total)
T20A4 001:152 JLINK_IsHalted()  returns FALSE (0002ms, 0684ms total)
T20A4 001:233 JLINK_IsHalted()  returns FALSE (0001ms, 0683ms total)
T20A4 001:235 JLINK_IsHalted()  returns FALSE (0001ms, 0683ms total)
T20A4 001:237 JLINK_IsHalted()  returns FALSE (0001ms, 0683ms total)
T20A4 001:263 JLINK_IsHalted()  returns FALSE (0001ms, 0683ms total)
T20A4 001:265 JLINK_IsHalted()  returns FALSE (0001ms, 0683ms total)
T20A4 001:281 JLINK_IsHalted()  returns FALSE (0001ms, 0683ms total)
T20A4 001:283 JLINK_IsHalted()  returns FALSE (0001ms, 0683ms total)
T20A4 001:313 JLINK_IsHalted()  returns FALSE (0001ms, 0683ms total)
T20A4 001:315 JLINK_IsHalted()  returns FALSE (0001ms, 0683ms total)
T20A4 001:317 JLINK_IsHalted()  returns FALSE (0001ms, 0683ms total)
T20A4 001:340 JLINK_IsHalted()  returns FALSE (0001ms, 0683ms total)
T20A4 001:342 JLINK_IsHalted()  returns FALSE (0001ms, 0683ms total)
T20A4 001:344 JLINK_IsHalted()  returns FALSE (0001ms, 0683ms total)
T20A4 001:346 JLINK_IsHalted()  returns FALSE (0001ms, 0683ms total)
T20A4 001:348 JLINK_IsHalted()  returns FALSE (0001ms, 0683ms total)
T20A4 001:374 JLINK_IsHalted()  returns FALSE (0001ms, 0683ms total)
T20A4 001:376 JLINK_IsHalted()  returns FALSE (0001ms, 0683ms total)
T20A4 001:378 JLINK_IsHalted()  returns FALSE (0001ms, 0683ms total)
T20A4 001:380 JLINK_IsHalted()  returns FALSE (0001ms, 0684ms total)
T20A4 001:427 JLINK_IsHalted()  returns FALSE (0001ms, 0685ms total)
T20A4 001:429 JLINK_IsHalted()  returns FALSE (0001ms, 0685ms total)
T20A4 001:452 JLINK_IsHalted()  returns FALSE (0001ms, 0685ms total)
T20A4 001:498 JLINK_IsHalted() -- CPU_ReadMem(2 bytes @ 0x20000000)  returns TRUE (0013ms, 0697ms total)
T20A4 001:512 JLINK_ReadReg(R15 (PC))  returns 0x20000000 (0000ms, 0684ms total)
T20A4 001:512 JLINK_ClrBPEx(BPHandle = 0x00000005)  returns 0x00 (0000ms, 0684ms total)
T20A4 001:512 JLINK_ReadReg(R0)  returns 0x00000000 (0000ms, 0684ms total)
T20A4 001:513 JLINK_WriteReg(R0, 0x08008000)  returns 0x00 (0000ms, 0684ms total)
T20A4 001:513 JLINK_WriteReg(R1, 0x00004000)  returns 0x00 (0000ms, 0684ms total)
T20A4 001:513 JLINK_WriteReg(R2, 0x000000FF)  returns 0x00 (0000ms, 0684ms total)
T20A4 001:513 JLINK_WriteReg(R3, 0x00000000)  returns 0x00 (0000ms, 0684ms total)
T20A4 001:513 JLINK_WriteReg(R4, 0x00000000)  returns 0x00 (0000ms, 0684ms total)
T20A4 001:513 JLINK_WriteReg(R5, 0x00000000)  returns 0x00 (0000ms, 0684ms total)
T20A4 001:513 JLINK_WriteReg(R6, 0x00000000)  returns 0x00 (0000ms, 0684ms total)
T20A4 001:513 JLINK_WriteReg(R7, 0x00000000)  returns 0x00 (0000ms, 0684ms total)
T20A4 001:513 JLINK_WriteReg(R8, 0x00000000)  returns 0x00 (0000ms, 0684ms total)
T20A4 001:513 JLINK_WriteReg(R9, 0x20000184)  returns 0x00 (0000ms, 0684ms total)
T20A4 001:513 JLINK_WriteReg(R10, 0x00000000)  returns 0x00 (0000ms, 0684ms total)
T20A4 001:513 JLINK_WriteReg(R11, 0x00000000)  returns 0x00 (0000ms, 0684ms total)
T20A4 001:513 JLINK_WriteReg(R12, 0x00000000)  returns 0x00 (0000ms, 0684ms total)
T20A4 001:513 JLINK_WriteReg(R13 (SP), 0x20001000)  returns 0x00 (0000ms, 0684ms total)
T20A4 001:513 JLINK_WriteReg(R14, 0x20000001)  returns 0x00 (0000ms, 0684ms total)
T20A4 001:513 JLINK_WriteReg(R15 (PC), 0x20000020)  returns 0x00 (0000ms, 0684ms total)
T20A4 001:513 JLINK_WriteReg(XPSR, 0x01000000)  returns 0x00 (0000ms, 0684ms total)
T20A4 001:513 JLINK_WriteReg(MSP, 0x20001000)  returns 0x00 (0001ms, 0685ms total)
T20A4 001:514 JLINK_WriteReg(PSP, 0x20001000)  returns 0x00 (0000ms, 0685ms total)
T20A4 001:514 JLINK_WriteReg(CFBP, 0x00000000)  returns 0x00 (0000ms, 0685ms total)
T20A4 001:514 JLINK_SetBPEx(Addr = 0x20000000, Type = 0xFFFFFFF2)  returns 0x00000006 (0000ms, 0685ms total)
T20A4 001:514 JLINK_Go() -- CPU_ReadMem(4 bytes @ 0xE0001000) (0007ms, 0692ms total)
T20A4 001:521 JLINK_IsHalted() -- CPU_ReadMem(2 bytes @ 0x20000000)  returns TRUE (0014ms, 0706ms total)
T20A4 001:535 JLINK_ReadReg(R15 (PC))  returns 0x20000000 (0000ms, 0692ms total)
T20A4 001:535 JLINK_ClrBPEx(BPHandle = 0x00000006)  returns 0x00 (0000ms, 0692ms total)
T20A4 001:535 JLINK_ReadReg(R0)  returns 0x00000001 (0000ms, 0692ms total)
T20A4 001:536 JLINK_WriteReg(R0, 0x08008000)  returns 0x00 (0000ms, 0692ms total)
T20A4 001:536 JLINK_WriteReg(R1, 0x00004000)  returns 0x00 (0000ms, 0692ms total)
T20A4 001:536 JLINK_WriteReg(R2, 0x000000FF)  returns 0x00 (0000ms, 0692ms total)
T20A4 001:536 JLINK_WriteReg(R3, 0x00000000)  returns 0x00 (0000ms, 0692ms total)
T20A4 001:536 JLINK_WriteReg(R4, 0x00000000)  returns 0x00 (0000ms, 0692ms total)
T20A4 001:536 JLINK_WriteReg(R5, 0x00000000)  returns 0x00 (0000ms, 0692ms total)
T20A4 001:536 JLINK_WriteReg(R6, 0x00000000)  returns 0x00 (0000ms, 0692ms total)
T20A4 001:536 JLINK_WriteReg(R7, 0x00000000)  returns 0x00 (0000ms, 0692ms total)
T20A4 001:536 JLINK_WriteReg(R8, 0x00000000)  returns 0x00 (0000ms, 0692ms total)
T20A4 001:536 JLINK_WriteReg(R9, 0x20000184)  returns 0x00 (0000ms, 0692ms total)
T20A4 001:536 JLINK_WriteReg(R10, 0x00000000)  returns 0x00 (0000ms, 0692ms total)
T20A4 001:536 JLINK_WriteReg(R11, 0x00000000)  returns 0x00 (0000ms, 0692ms total)
T20A4 001:536 JLINK_WriteReg(R12, 0x00000000)  returns 0x00 (0000ms, 0692ms total)
T20A4 001:536 JLINK_WriteReg(R13 (SP), 0x20001000)  returns 0x00 (0000ms, 0692ms total)
T20A4 001:536 JLINK_WriteReg(R14, 0x20000001)  returns 0x00 (0000ms, 0692ms total)
T20A4 001:536 JLINK_WriteReg(R15 (PC), 0x200000C6)  returns 0x00 (0000ms, 0692ms total)
T20A4 001:536 JLINK_WriteReg(XPSR, 0x01000000)  returns 0x00 (0000ms, 0692ms total)
T20A4 001:536 JLINK_WriteReg(MSP, 0x20001000)  returns 0x00 (0000ms, 0692ms total)
T20A4 001:536 JLINK_WriteReg(PSP, 0x20001000)  returns 0x00 (0000ms, 0692ms total)
T20A4 001:536 JLINK_WriteReg(CFBP, 0x00000000)  returns 0x00 (0000ms, 0692ms total)
T20A4 001:536 JLINK_SetBPEx(Addr = 0x20000000, Type = 0xFFFFFFF2)  returns 0x00000007 (0000ms, 0692ms total)
T20A4 001:536 JLINK_Go() -- CPU_ReadMem(4 bytes @ 0xE0001000) (0007ms, 0699ms total)
T20A4 001:543 JLINK_IsHalted()  returns FALSE (0002ms, 0701ms total)
T20A4 001:602 JLINK_IsHalted()  returns FALSE (0001ms, 0700ms total)
T20A4 001:604 JLINK_IsHalted()  returns FALSE (0001ms, 0700ms total)
T20A4 001:606 JLINK_IsHalted()  returns FALSE (0001ms, 0700ms total)
T20A4 001:608 JLINK_IsHalted()  returns FALSE (0001ms, 0700ms total)
T20A4 001:610 JLINK_IsHalted()  returns FALSE (0001ms, 0700ms total)
T20A4 001:612 JLINK_IsHalted()  returns FALSE (0001ms, 0700ms total)
T20A4 001:614 JLINK_IsHalted()  returns FALSE (0001ms, 0700ms total)
T20A4 001:634 JLINK_IsHalted()  returns FALSE (0001ms, 0700ms total)
T20A4 001:636 JLINK_IsHalted()  returns FALSE (0001ms, 0700ms total)
T20A4 001:638 JLINK_IsHalted()  returns FALSE (0001ms, 0700ms total)
T20A4 001:640 JLINK_IsHalted()  returns FALSE (0001ms, 0700ms total)
T20A4 001:642 JLINK_IsHalted()  returns FALSE (0001ms, 0700ms total)
T20A4 001:651 JLINK_IsHalted()  returns FALSE (0001ms, 0700ms total)
T20A4 001:653 JLINK_IsHalted()  returns FALSE (0001ms, 0700ms total)
T20A4 001:655 JLINK_IsHalted()  returns FALSE (0001ms, 0700ms total)
T20A4 001:657 JLINK_IsHalted()  returns FALSE (0001ms, 0700ms total)
T20A4 001:668 JLINK_IsHalted()  returns FALSE (0001ms, 0700ms total)
T20A4 001:670 JLINK_IsHalted()  returns FALSE (0001ms, 0700ms total)
T20A4 001:694 JLINK_IsHalted()  returns FALSE (0001ms, 0700ms total)
T20A4 001:696 JLINK_IsHalted()  returns FALSE (0001ms, 0700ms total)
T20A4 001:698 JLINK_IsHalted()  returns FALSE (0001ms, 0700ms total)
T20A4 001:700 JLINK_IsHalted()  returns FALSE (0001ms, 0700ms total)
T20A4 001:702 JLINK_IsHalted()  returns FALSE (0001ms, 0700ms total)
T20A4 001:704 JLINK_IsHalted()  returns FALSE (0001ms, 0700ms total)
T20A4 001:715 JLINK_IsHalted()  returns FALSE (0001ms, 0700ms total)
T20A4 001:717 JLINK_IsHalted()  returns FALSE (0001ms, 0700ms total)
T20A4 001:719 JLINK_IsHalted()  returns FALSE (0001ms, 0700ms total)
T20A4 001:721 JLINK_IsHalted()  returns FALSE (0001ms, 0700ms total)
T20A4 001:723 JLINK_IsHalted()  returns FALSE (0001ms, 0700ms total)
T20A4 001:747 JLINK_IsHalted()  returns FALSE (0001ms, 0700ms total)
T20A4 001:749 JLINK_IsHalted()  returns FALSE (0001ms, 0700ms total)
T20A4 001:751 JLINK_IsHalted()  returns FALSE (0001ms, 0700ms total)
T20A4 001:753 JLINK_IsHalted()  returns FALSE (0001ms, 0700ms total)
T20A4 001:755 JLINK_IsHalted()  returns FALSE (0001ms, 0700ms total)
T20A4 001:764 JLINK_IsHalted()  returns FALSE (0001ms, 0700ms total)
T20A4 001:773 JLINK_IsHalted()  returns FALSE (0001ms, 0700ms total)
T20A4 001:775 JLINK_IsHalted()  returns FALSE (0001ms, 0700ms total)
T20A4 001:777 JLINK_IsHalted()  returns FALSE (0001ms, 0700ms total)
T20A4 001:779 JLINK_IsHalted()  returns FALSE (0001ms, 0700ms total)
T20A4 001:781 JLINK_IsHalted()  returns FALSE (0001ms, 0700ms total)
T20A4 001:783 JLINK_IsHalted()  returns FALSE (0001ms, 0700ms total)
T20A4 001:800 JLINK_IsHalted()  returns FALSE (0001ms, 0700ms total)
T20A4 001:809 JLINK_IsHalted()  returns FALSE (0001ms, 0700ms total)
T20A4 001:811 JLINK_IsHalted()  returns FALSE (0001ms, 0700ms total)
T20A4 001:813 JLINK_IsHalted()  returns FALSE (0001ms, 0700ms total)
T20A4 001:815 JLINK_IsHalted()  returns FALSE (0001ms, 0700ms total)
T20A4 001:826 JLINK_IsHalted()  returns FALSE (0001ms, 0700ms total)
T20A4 001:841 JLINK_IsHalted()  returns FALSE (0001ms, 0700ms total)
T20A4 001:843 JLINK_IsHalted()  returns FALSE (0001ms, 0700ms total)
T20A4 001:845 JLINK_IsHalted()  returns FALSE (0001ms, 0700ms total)
T20A4 001:847 JLINK_IsHalted()  returns FALSE (0001ms, 0700ms total)
T20A4 001:857 JLINK_IsHalted()  returns FALSE (0001ms, 0700ms total)
T20A4 001:859 JLINK_IsHalted()  returns FALSE (0001ms, 0700ms total)
T20A4 001:861 JLINK_IsHalted()  returns FALSE (0001ms, 0700ms total)
T20A4 001:863 JLINK_IsHalted()  returns FALSE (0001ms, 0700ms total)
T20A4 001:865 JLINK_IsHalted()  returns FALSE (0001ms, 0700ms total)
T20A4 001:874 JLINK_IsHalted()  returns FALSE (0001ms, 0700ms total)
T20A4 001:883 JLINK_IsHalted() -- CPU_ReadMem(2 bytes @ 0x20000000)  returns TRUE (0013ms, 0712ms total)
T20A4 001:896 JLINK_ReadReg(R15 (PC))  returns 0x20000000 (0000ms, 0699ms total)
T20A4 001:896 JLINK_ClrBPEx(BPHandle = 0x00000007)  returns 0x00 (0000ms, 0699ms total)
T20A4 001:896 JLINK_ReadReg(R0)  returns 0x00000000 (0000ms, 0699ms total)
T20A4 001:897 JLINK_WriteReg(R0, 0x0800C000)  returns 0x00 (0000ms, 0699ms total)
T20A4 001:897 JLINK_WriteReg(R1, 0x00004000)  returns 0x00 (0000ms, 0699ms total)
T20A4 001:897 JLINK_WriteReg(R2, 0x000000FF)  returns 0x00 (0000ms, 0699ms total)
T20A4 001:897 JLINK_WriteReg(R3, 0x00000000)  returns 0x00 (0000ms, 0699ms total)
T20A4 001:897 JLINK_WriteReg(R4, 0x00000000)  returns 0x00 (0000ms, 0699ms total)
T20A4 001:897 JLINK_WriteReg(R5, 0x00000000)  returns 0x00 (0000ms, 0699ms total)
T20A4 001:897 JLINK_WriteReg(R6, 0x00000000)  returns 0x00 (0000ms, 0699ms total)
T20A4 001:897 JLINK_WriteReg(R7, 0x00000000)  returns 0x00 (0000ms, 0699ms total)
T20A4 001:897 JLINK_WriteReg(R8, 0x00000000)  returns 0x00 (0000ms, 0699ms total)
T20A4 001:897 JLINK_WriteReg(R9, 0x20000184)  returns 0x00 (0000ms, 0699ms total)
T20A4 001:897 JLINK_WriteReg(R10, 0x00000000)  returns 0x00 (0000ms, 0699ms total)
T20A4 001:897 JLINK_WriteReg(R11, 0x00000000)  returns 0x00 (0000ms, 0699ms total)
T20A4 001:897 JLINK_WriteReg(R12, 0x00000000)  returns 0x00 (0001ms, 0700ms total)
T20A4 001:898 JLINK_WriteReg(R13 (SP), 0x20001000)  returns 0x00 (0000ms, 0700ms total)
T20A4 001:898 JLINK_WriteReg(R14, 0x20000001)  returns 0x00 (0000ms, 0700ms total)
T20A4 001:898 JLINK_WriteReg(R15 (PC), 0x20000020)  returns 0x00 (0000ms, 0700ms total)
T20A4 001:898 JLINK_WriteReg(XPSR, 0x01000000)  returns 0x00 (0000ms, 0700ms total)
T20A4 001:898 JLINK_WriteReg(MSP, 0x20001000)  returns 0x00 (0000ms, 0700ms total)
T20A4 001:898 JLINK_WriteReg(PSP, 0x20001000)  returns 0x00 (0000ms, 0700ms total)
T20A4 001:898 JLINK_WriteReg(CFBP, 0x00000000)  returns 0x00 (0000ms, 0700ms total)
T20A4 001:898 JLINK_SetBPEx(Addr = 0x20000000, Type = 0xFFFFFFF2)  returns 0x00000008 (0000ms, 0700ms total)
T20A4 001:898 JLINK_Go() -- CPU_ReadMem(4 bytes @ 0xE0001000) (0007ms, 0707ms total)
T20A4 001:905 JLINK_IsHalted() -- CPU_ReadMem(2 bytes @ 0x20000000)  returns TRUE (0014ms, 0721ms total)
T20A4 001:919 JLINK_ReadReg(R15 (PC))  returns 0x20000000 (0000ms, 0707ms total)
T20A4 001:919 JLINK_ClrBPEx(BPHandle = 0x00000008)  returns 0x00 (0000ms, 0707ms total)
T20A4 001:919 JLINK_ReadReg(R0)  returns 0x00000001 (0000ms, 0707ms total)
T20A4 001:919 JLINK_WriteReg(R0, 0x0800C000)  returns 0x00 (0000ms, 0707ms total)
T20A4 001:919 JLINK_WriteReg(R1, 0x00004000)  returns 0x00 (0001ms, 0708ms total)
T20A4 001:920 JLINK_WriteReg(R2, 0x000000FF)  returns 0x00 (0000ms, 0708ms total)
T20A4 001:920 JLINK_WriteReg(R3, 0x00000000)  returns 0x00 (0000ms, 0708ms total)
T20A4 001:920 JLINK_WriteReg(R4, 0x00000000)  returns 0x00 (0000ms, 0708ms total)
T20A4 001:920 JLINK_WriteReg(R5, 0x00000000)  returns 0x00 (0000ms, 0708ms total)
T20A4 001:920 JLINK_WriteReg(R6, 0x00000000)  returns 0x00 (0000ms, 0708ms total)
T20A4 001:920 JLINK_WriteReg(R7, 0x00000000)  returns 0x00 (0000ms, 0708ms total)
T20A4 001:920 JLINK_WriteReg(R8, 0x00000000)  returns 0x00 (0000ms, 0708ms total)
T20A4 001:920 JLINK_WriteReg(R9, 0x20000184)  returns 0x00 (0000ms, 0708ms total)
T20A4 001:920 JLINK_WriteReg(R10, 0x00000000)  returns 0x00 (0000ms, 0708ms total)
T20A4 001:920 JLINK_WriteReg(R11, 0x00000000)  returns 0x00 (0000ms, 0708ms total)
T20A4 001:920 JLINK_WriteReg(R12, 0x00000000)  returns 0x00 (0000ms, 0708ms total)
T20A4 001:920 JLINK_WriteReg(R13 (SP), 0x20001000)  returns 0x00 (0000ms, 0708ms total)
T20A4 001:920 JLINK_WriteReg(R14, 0x20000001)  returns 0x00 (0000ms, 0708ms total)
T20A4 001:920 JLINK_WriteReg(R15 (PC), 0x200000C6)  returns 0x00 (0000ms, 0708ms total)
T20A4 001:920 JLINK_WriteReg(XPSR, 0x01000000)  returns 0x00 (0000ms, 0708ms total)
T20A4 001:920 JLINK_WriteReg(MSP, 0x20001000)  returns 0x00 (0000ms, 0708ms total)
T20A4 001:920 JLINK_WriteReg(PSP, 0x20001000)  returns 0x00 (0000ms, 0708ms total)
T20A4 001:920 JLINK_WriteReg(CFBP, 0x00000000)  returns 0x00 (0000ms, 0708ms total)
T20A4 001:920 JLINK_SetBPEx(Addr = 0x20000000, Type = 0xFFFFFFF2)  returns 0x00000009 (0000ms, 0708ms total)
T20A4 001:920 JLINK_Go() -- CPU_ReadMem(4 bytes @ 0xE0001000) (0006ms, 0714ms total)
T20A4 001:926 JLINK_IsHalted()  returns FALSE (0002ms, 0716ms total)
T20A4 001:981 JLINK_IsHalted()  returns FALSE (0001ms, 0715ms total)
T20A4 001:983 JLINK_IsHalted()  returns FALSE (0001ms, 0715ms total)
T20A4 001:985 JLINK_IsHalted()  returns FALSE (0001ms, 0715ms total)
T20A4 001:987 JLINK_IsHalted()  returns FALSE (0001ms, 0715ms total)
T20A4 001:989 JLINK_IsHalted()  returns FALSE (0001ms, 0715ms total)
T20A4 002:001 JLINK_IsHalted()  returns FALSE (0001ms, 0715ms total)
T20A4 002:003 JLINK_IsHalted()  returns FALSE (0001ms, 0715ms total)
T20A4 002:044 JLINK_IsHalted()  returns FALSE (0001ms, 0715ms total)
T20A4 002:092 JLINK_IsHalted()  returns FALSE (0001ms, 0715ms total)
T20A4 002:094 JLINK_IsHalted()  returns FALSE (0001ms, 0715ms total)
T20A4 002:096 JLINK_IsHalted()  returns FALSE (0001ms, 0715ms total)
T20A4 002:098 JLINK_IsHalted()  returns FALSE (0001ms, 0715ms total)
T20A4 002:100 JLINK_IsHalted()  returns FALSE (0001ms, 0715ms total)
T20A4 002:111 JLINK_IsHalted()  returns FALSE (0001ms, 0715ms total)
T20A4 002:113 JLINK_IsHalted()  returns FALSE (0001ms, 0715ms total)
T20A4 002:136 JLINK_IsHalted()  returns FALSE (0001ms, 0715ms total)
T20A4 002:138 JLINK_IsHalted()  returns FALSE (0001ms, 0715ms total)
T20A4 002:140 JLINK_IsHalted()  returns FALSE (0001ms, 0715ms total)
T20A4 002:154 JLINK_IsHalted()  returns FALSE (0001ms, 0715ms total)
T20A4 002:188 JLINK_IsHalted()  returns FALSE (0001ms, 0715ms total)
T20A4 002:190 JLINK_IsHalted()  returns FALSE (0001ms, 0715ms total)
T20A4 002:192 JLINK_IsHalted()  returns FALSE (0001ms, 0715ms total)
T20A4 002:214 JLINK_IsHalted()  returns FALSE (0001ms, 0715ms total)
T20A4 002:216 JLINK_IsHalted()  returns FALSE (0001ms, 0715ms total)
T20A4 002:218 JLINK_IsHalted()  returns FALSE (0001ms, 0715ms total)
T20A4 002:220 JLINK_IsHalted()  returns FALSE (0001ms, 0715ms total)
T20A4 002:250 JLINK_IsHalted()  returns FALSE (0001ms, 0715ms total)
T20A4 002:252 JLINK_IsHalted()  returns FALSE (0001ms, 0715ms total)
T20A4 002:298 JLINK_IsHalted() -- CPU_ReadMem(2 bytes @ 0x20000000)  returns TRUE (0013ms, 0727ms total)
T20A4 002:311 JLINK_ReadReg(R15 (PC))  returns 0x20000000 (0001ms, 0715ms total)
T20A4 002:312 JLINK_ClrBPEx(BPHandle = 0x00000009)  returns 0x00 (0000ms, 0715ms total)
T20A4 002:312 JLINK_ReadReg(R0)  returns 0x00000000 (0000ms, 0715ms total)
T20A4 002:312 JLINK_WriteReg(R0, 0x00000001)  returns 0x00 (0000ms, 0715ms total)
T20A4 002:312 JLINK_WriteReg(R1, 0x00004000)  returns 0x00 (0000ms, 0715ms total)
T20A4 002:312 JLINK_WriteReg(R2, 0x000000FF)  returns 0x00 (0000ms, 0715ms total)
T20A4 002:312 JLINK_WriteReg(R3, 0x00000000)  returns 0x00 (0000ms, 0715ms total)
T20A4 002:312 JLINK_WriteReg(R4, 0x00000000)  returns 0x00 (0000ms, 0715ms total)
T20A4 002:312 JLINK_WriteReg(R5, 0x00000000)  returns 0x00 (0000ms, 0715ms total)
T20A4 002:312 JLINK_WriteReg(R6, 0x00000000)  returns 0x00 (0001ms, 0716ms total)
T20A4 002:313 JLINK_WriteReg(R7, 0x00000000)  returns 0x00 (0000ms, 0716ms total)
T20A4 002:313 JLINK_WriteReg(R8, 0x00000000)  returns 0x00 (0000ms, 0716ms total)
T20A4 002:313 JLINK_WriteReg(R9, 0x20000184)  returns 0x00 (0000ms, 0716ms total)
T20A4 002:313 JLINK_WriteReg(R10, 0x00000000)  returns 0x00 (0000ms, 0716ms total)
T20A4 002:313 JLINK_WriteReg(R11, 0x00000000)  returns 0x00 (0000ms, 0716ms total)
T20A4 002:313 JLINK_WriteReg(R12, 0x00000000)  returns 0x00 (0000ms, 0716ms total)
T20A4 002:313 JLINK_WriteReg(R13 (SP), 0x20001000)  returns 0x00 (0000ms, 0716ms total)
T20A4 002:313 JLINK_WriteReg(R14, 0x20000001)  returns 0x00 (0000ms, 0716ms total)
T20A4 002:313 JLINK_WriteReg(R15 (PC), 0x2000008C)  returns 0x00 (0000ms, 0716ms total)
T20A4 002:313 JLINK_WriteReg(XPSR, 0x01000000)  returns 0x00 (0000ms, 0716ms total)
T20A4 002:313 JLINK_WriteReg(MSP, 0x20001000)  returns 0x00 (0000ms, 0716ms total)
T20A4 002:313 JLINK_WriteReg(PSP, 0x20001000)  returns 0x00 (0000ms, 0716ms total)
T20A4 002:313 JLINK_WriteReg(CFBP, 0x00000000)  returns 0x00 (0000ms, 0716ms total)
T20A4 002:313 JLINK_SetBPEx(Addr = 0x20000000, Type = 0xFFFFFFF2)  returns 0x0000000A (0000ms, 0716ms total)
T20A4 002:313 JLINK_Go() -- CPU_ReadMem(4 bytes @ 0xE0001000) (0007ms, 0723ms total)
T20A4 002:320 JLINK_IsHalted() -- CPU_ReadMem(2 bytes @ 0x20000000)  returns TRUE (0015ms, 0738ms total)
T20A4 002:335 JLINK_ReadReg(R15 (PC))  returns 0x20000000 (0000ms, 0723ms total)
T20A4 002:335 JLINK_ClrBPEx(BPHandle = 0x0000000A)  returns 0x00 (0000ms, 0723ms total)
T20A4 002:335 JLINK_ReadReg(R0)  returns 0x00000000 (0000ms, 0723ms total)
T20A4 002:395 JLINK_WriteMem(0x20000000, 0x0188 Bytes, ...) - Data: 00 BE 0A E0 0D 78 2D 06 68 40 08 24 40 00 00 D3 ... -- CPU_WriteMem(392 bytes @ 0x20000000)  returns 0x188 (0019ms, 0742ms total)
T20A4 002:414 JLINK_WriteReg(R0, 0x08000000)  returns 0x00 (0000ms, 0742ms total)
T20A4 002:414 JLINK_WriteReg(R1, 0x00B71B00)  returns 0x00 (0000ms, 0742ms total)
T20A4 002:414 JLINK_WriteReg(R2, 0x00000002)  returns 0x00 (0000ms, 0742ms total)
T20A4 002:414 JLINK_WriteReg(R3, 0x00000000)  returns 0x00 (0000ms, 0742ms total)
T20A4 002:414 JLINK_WriteReg(R4, 0x00000000)  returns 0x00 (0000ms, 0742ms total)
T20A4 002:414 JLINK_WriteReg(R5, 0x00000000)  returns 0x00 (0000ms, 0742ms total)
T20A4 002:414 JLINK_WriteReg(R6, 0x00000000)  returns 0x00 (0000ms, 0742ms total)
T20A4 002:414 JLINK_WriteReg(R7, 0x00000000)  returns 0x00 (0000ms, 0742ms total)
T20A4 002:414 JLINK_WriteReg(R8, 0x00000000)  returns 0x00 (0000ms, 0742ms total)
T20A4 002:414 JLINK_WriteReg(R9, 0x20000184)  returns 0x00 (0000ms, 0742ms total)
T20A4 002:414 JLINK_WriteReg(R10, 0x00000000)  returns 0x00 (0000ms, 0742ms total)
T20A4 002:414 JLINK_WriteReg(R11, 0x00000000)  returns 0x00 (0000ms, 0742ms total)
T20A4 002:414 JLINK_WriteReg(R12, 0x00000000)  returns 0x00 (0000ms, 0742ms total)
T20A4 002:414 JLINK_WriteReg(R13 (SP), 0x20001000)  returns 0x00 (0000ms, 0742ms total)
T20A4 002:414 JLINK_WriteReg(R14, 0x20000001)  returns 0x00 (0000ms, 0742ms total)
T20A4 002:414 JLINK_WriteReg(R15 (PC), 0x2000005E)  returns 0x00 (0000ms, 0742ms total)
T20A4 002:414 JLINK_WriteReg(XPSR, 0x01000000)  returns 0x00 (0000ms, 0742ms total)
T20A4 002:414 JLINK_WriteReg(MSP, 0x20001000)  returns 0x00 (0000ms, 0742ms total)
T20A4 002:414 JLINK_WriteReg(PSP, 0x20001000)  returns 0x00 (0000ms, 0742ms total)
T20A4 002:414 JLINK_WriteReg(CFBP, 0x00000000)  returns 0x00 (0000ms, 0742ms total)
T20A4 002:414 JLINK_SetBPEx(Addr = 0x20000000, Type = 0xFFFFFFF2) -- CPU_ReadMem(2 bytes @ 0x20000000)  returns 0x0000000B (0002ms, 0744ms total)
T20A4 002:416 JLINK_Go() -- CPU_WriteMem(2 bytes @ 0x20000000) -- CPU_ReadMem(4 bytes @ 0xE0001000) (0009ms, 0753ms total)
T20A4 002:425 JLINK_IsHalted() -- CPU_ReadMem(2 bytes @ 0x20000000)  returns TRUE (0014ms, 0767ms total)
T20A4 002:440 JLINK_ReadReg(R15 (PC))  returns 0x20000000 (0000ms, 0753ms total)
T20A4 002:440 JLINK_ClrBPEx(BPHandle = 0x0000000B)  returns 0x00 (0000ms, 0753ms total)
T20A4 002:440 JLINK_ReadReg(R0)  returns 0x00000000 (0000ms, 0753ms total)
T20A4 002:440 JLINK_WriteMem(0x20000188, 0x0400 Bytes, ...) - Data: 28 EE 00 20 1D 3B 00 08 A1 12 00 08 A5 12 00 08 ... -- CPU_WriteMem(1024 bytes @ 0x20000188)  returns 0x400 (0046ms, 0799ms total)
T20A4 002:487 JLINK_WriteReg(R0, 0x08000000)  returns 0x00 (0000ms, 0799ms total)
T20A4 002:487 JLINK_WriteReg(R1, 0x00000400)  returns 0x00 (0000ms, 0799ms total)
T20A4 002:487 JLINK_WriteReg(R2, 0x20000188)  returns 0x00 (0000ms, 0799ms total)
T20A4 002:487 JLINK_WriteReg(R3, 0x00000000)  returns 0x00 (0000ms, 0799ms total)
T20A4 002:487 JLINK_WriteReg(R4, 0x00000000)  returns 0x00 (0000ms, 0799ms total)
T20A4 002:487 JLINK_WriteReg(R5, 0x00000000)  returns 0x00 (0000ms, 0799ms total)
T20A4 002:487 JLINK_WriteReg(R6, 0x00000000)  returns 0x00 (0000ms, 0799ms total)
T20A4 002:487 JLINK_WriteReg(R7, 0x00000000)  returns 0x00 (0000ms, 0799ms total)
T20A4 002:487 JLINK_WriteReg(R8, 0x00000000)  returns 0x00 (0000ms, 0799ms total)
T20A4 002:487 JLINK_WriteReg(R9, 0x20000184)  returns 0x00 (0000ms, 0799ms total)
T20A4 002:487 JLINK_WriteReg(R10, 0x00000000)  returns 0x00 (0000ms, 0799ms total)
T20A4 002:487 JLINK_WriteReg(R11, 0x00000000)  returns 0x00 (0000ms, 0799ms total)
T20A4 002:487 JLINK_WriteReg(R12, 0x00000000)  returns 0x00 (0000ms, 0799ms total)
T20A4 002:487 JLINK_WriteReg(R13 (SP), 0x20001000)  returns 0x00 (0000ms, 0799ms total)
T20A4 002:487 JLINK_WriteReg(R14, 0x20000001)  returns 0x00 (0000ms, 0799ms total)
T20A4 002:487 JLINK_WriteReg(R15 (PC), 0x20000112)  returns 0x00 (0000ms, 0799ms total)
T20A4 002:487 JLINK_WriteReg(XPSR, 0x01000000)  returns 0x00 (0000ms, 0799ms total)
T20A4 002:487 JLINK_WriteReg(MSP, 0x20001000)  returns 0x00 (0001ms, 0800ms total)
T20A4 002:488 JLINK_WriteReg(PSP, 0x20001000)  returns 0x00 (0000ms, 0800ms total)
T20A4 002:488 JLINK_WriteReg(CFBP, 0x00000000)  returns 0x00 (0000ms, 0800ms total)
T20A4 002:488 JLINK_SetBPEx(Addr = 0x20000000, Type = 0xFFFFFFF2)  returns 0x0000000C (0000ms, 0800ms total)
T20A4 002:488 JLINK_Go() -- CPU_ReadMem(4 bytes @ 0xE0001000) (0006ms, 0806ms total)
T20A4 002:494 JLINK_IsHalted()  returns FALSE (0002ms, 0808ms total)
T20A4 002:650 JLINK_IsHalted() -- CPU_ReadMem(2 bytes @ 0x20000000)  returns TRUE (0013ms, 0819ms total)
T20A4 002:663 JLINK_ReadReg(R15 (PC))  returns 0x20000000 (0001ms, 0807ms total)
T20A4 002:664 JLINK_ClrBPEx(BPHandle = 0x0000000C)  returns 0x00 (0000ms, 0807ms total)
T20A4 002:664 JLINK_ReadReg(R0)  returns 0x00000000 (0000ms, 0807ms total)
T20A4 002:665 JLINK_WriteMem(0x20000188, 0x0400 Bytes, ...) - Data: 48 6D 0B F0 0B FA C4 B2 21 46 D8 48 08 F0 3D FB ... -- CPU_WriteMem(1024 bytes @ 0x20000188)  returns 0x400 (0046ms, 0853ms total)
T20A4 002:711 JLINK_WriteReg(R0, 0x08000400)  returns 0x00 (0000ms, 0853ms total)
T20A4 002:711 JLINK_WriteReg(R1, 0x00000400)  returns 0x00 (0000ms, 0853ms total)
T20A4 002:711 JLINK_WriteReg(R2, 0x20000188)  returns 0x00 (0000ms, 0853ms total)
T20A4 002:711 JLINK_WriteReg(R3, 0x00000000)  returns 0x00 (0000ms, 0853ms total)
T20A4 002:711 JLINK_WriteReg(R4, 0x00000000)  returns 0x00 (0000ms, 0853ms total)
T20A4 002:711 JLINK_WriteReg(R5, 0x00000000)  returns 0x00 (0000ms, 0853ms total)
T20A4 002:711 JLINK_WriteReg(R6, 0x00000000)  returns 0x00 (0000ms, 0853ms total)
T20A4 002:711 JLINK_WriteReg(R7, 0x00000000)  returns 0x00 (0000ms, 0853ms total)
T20A4 002:711 JLINK_WriteReg(R8, 0x00000000)  returns 0x00 (0000ms, 0853ms total)
T20A4 002:711 JLINK_WriteReg(R9, 0x20000184)  returns 0x00 (0000ms, 0853ms total)
T20A4 002:711 JLINK_WriteReg(R10, 0x00000000)  returns 0x00 (0000ms, 0853ms total)
T20A4 002:711 JLINK_WriteReg(R11, 0x00000000)  returns 0x00 (0000ms, 0853ms total)
T20A4 002:711 JLINK_WriteReg(R12, 0x00000000)  returns 0x00 (0000ms, 0853ms total)
T20A4 002:711 JLINK_WriteReg(R13 (SP), 0x20001000)  returns 0x00 (0000ms, 0853ms total)
T20A4 002:711 JLINK_WriteReg(R14, 0x20000001)  returns 0x00 (0000ms, 0853ms total)
T20A4 002:711 JLINK_WriteReg(R15 (PC), 0x20000112)  returns 0x00 (0000ms, 0853ms total)
T20A4 002:712 JLINK_WriteReg(XPSR, 0x01000000)  returns 0x00 (0000ms, 0854ms total)
T20A4 002:712 JLINK_WriteReg(MSP, 0x20001000)  returns 0x00 (0000ms, 0854ms total)
T20A4 002:712 JLINK_WriteReg(PSP, 0x20001000)  returns 0x00 (0000ms, 0854ms total)
T20A4 002:712 JLINK_WriteReg(CFBP, 0x00000000)  returns 0x00 (0000ms, 0854ms total)
T20A4 002:712 JLINK_SetBPEx(Addr = 0x20000000, Type = 0xFFFFFFF2)  returns 0x0000000D (0000ms, 0854ms total)
T20A4 002:712 JLINK_Go() -- CPU_ReadMem(4 bytes @ 0xE0001000) (0007ms, 0861ms total)
T20A4 002:719 JLINK_IsHalted()  returns FALSE (0002ms, 0863ms total)
T20A4 002:812 JLINK_IsHalted() -- CPU_ReadMem(2 bytes @ 0x20000000)  returns TRUE (0013ms, 0874ms total)
T20A4 002:825 JLINK_ReadReg(R15 (PC))  returns 0x20000000 (0000ms, 0861ms total)
T20A4 002:825 JLINK_ClrBPEx(BPHandle = 0x0000000D)  returns 0x00 (0000ms, 0861ms total)
T20A4 002:825 JLINK_ReadReg(R0)  returns 0x00000000 (0001ms, 0862ms total)
T20A4 002:827 JLINK_WriteMem(0x20000188, 0x0400 Bytes, ...) - Data: 38 C5 00 20 2D E9 FE 43 00 20 00 90 00 24 00 25 ... -- CPU_WriteMem(1024 bytes @ 0x20000188)  returns 0x400 (0046ms, 0908ms total)
T20A4 002:873 JLINK_WriteReg(R0, 0x08000800)  returns 0x00 (0000ms, 0908ms total)
T20A4 002:873 JLINK_WriteReg(R1, 0x00000400)  returns 0x00 (0000ms, 0908ms total)
T20A4 002:873 JLINK_WriteReg(R2, 0x20000188)  returns 0x00 (0000ms, 0908ms total)
T20A4 002:873 JLINK_WriteReg(R3, 0x00000000)  returns 0x00 (0000ms, 0908ms total)
T20A4 002:873 JLINK_WriteReg(R4, 0x00000000)  returns 0x00 (0000ms, 0908ms total)
T20A4 002:873 JLINK_WriteReg(R5, 0x00000000)  returns 0x00 (0000ms, 0908ms total)
T20A4 002:873 JLINK_WriteReg(R6, 0x00000000)  returns 0x00 (0000ms, 0908ms total)
T20A4 002:873 JLINK_WriteReg(R7, 0x00000000)  returns 0x00 (0000ms, 0908ms total)
T20A4 002:873 JLINK_WriteReg(R8, 0x00000000)  returns 0x00 (0000ms, 0908ms total)
T20A4 002:873 JLINK_WriteReg(R9, 0x20000184)  returns 0x00 (0000ms, 0908ms total)
T20A4 002:873 JLINK_WriteReg(R10, 0x00000000)  returns 0x00 (0000ms, 0908ms total)
T20A4 002:873 JLINK_WriteReg(R11, 0x00000000)  returns 0x00 (0000ms, 0908ms total)
T20A4 002:873 JLINK_WriteReg(R12, 0x00000000)  returns 0x00 (0000ms, 0908ms total)
T20A4 002:873 JLINK_WriteReg(R13 (SP), 0x20001000)  returns 0x00 (0000ms, 0908ms total)
T20A4 002:873 JLINK_WriteReg(R14, 0x20000001)  returns 0x00 (0000ms, 0908ms total)
T20A4 002:873 JLINK_WriteReg(R15 (PC), 0x20000112)  returns 0x00 (0000ms, 0908ms total)
T20A4 002:873 JLINK_WriteReg(XPSR, 0x01000000)  returns 0x00 (0000ms, 0908ms total)
T20A4 002:874 JLINK_WriteReg(MSP, 0x20001000)  returns 0x00 (0000ms, 0908ms total)
T20A4 002:874 JLINK_WriteReg(PSP, 0x20001000)  returns 0x00 (0000ms, 0908ms total)
T20A4 002:874 JLINK_WriteReg(CFBP, 0x00000000)  returns 0x00 (0000ms, 0908ms total)
T20A4 002:874 JLINK_SetBPEx(Addr = 0x20000000, Type = 0xFFFFFFF2)  returns 0x0000000E (0000ms, 0908ms total)
T20A4 002:874 JLINK_Go() -- CPU_ReadMem(4 bytes @ 0xE0001000) (0007ms, 0915ms total)
T20A4 002:881 JLINK_IsHalted()  returns FALSE (0002ms, 0917ms total)
T20A4 002:940 JLINK_IsHalted() -- CPU_ReadMem(2 bytes @ 0x20000000)  returns TRUE (0013ms, 0928ms total)
T20A4 002:953 JLINK_ReadReg(R15 (PC))  returns 0x20000000 (0000ms, 0915ms total)
T20A4 002:953 JLINK_ClrBPEx(BPHandle = 0x0000000E)  returns 0x00 (0000ms, 0915ms total)
